<Qucs Dataset 25.1.2>
<indep frequency 200>
1.000000000000e+00
1.104522613065e+01
2.109045226131e+01
3.113567839196e+01
4.118090452261e+01
5.122613065327e+01
6.127135678392e+01
7.131658291457e+01
8.136180904523e+01
9.140703517588e+01
1.014522613065e+02
1.114974874372e+02
1.215427135678e+02
1.315879396985e+02
1.416331658291e+02
1.516783919598e+02
1.617236180905e+02
1.717688442211e+02
1.818140703518e+02
1.918592964824e+02
2.019045226131e+02
2.119497487437e+02
2.219949748744e+02
2.320402010050e+02
2.420854271357e+02
2.521306532663e+02
2.621758793970e+02
2.722211055276e+02
2.822663316583e+02
2.923115577889e+02
3.023567839196e+02
3.124020100503e+02
3.224472361809e+02
3.324924623116e+02
3.425376884422e+02
3.525829145729e+02
3.626281407035e+02
3.726733668342e+02
3.827185929648e+02
3.927638190955e+02
4.028090452261e+02
4.128542713568e+02
4.228994974874e+02
4.329447236181e+02
4.429899497487e+02
4.530351758794e+02
4.630804020101e+02
4.731256281407e+02
4.831708542714e+02
4.932160804020e+02
5.032613065327e+02
5.133065326633e+02
5.233517587940e+02
5.333969849246e+02
5.434422110553e+02
5.534874371859e+02
5.635326633166e+02
5.735778894472e+02
5.836231155779e+02
5.936683417085e+02
6.037135678392e+02
6.137587939698e+02
6.238040201005e+02
6.338492462312e+02
6.438944723618e+02
6.539396984925e+02
6.639849246231e+02
6.740301507538e+02
6.840753768844e+02
6.941206030151e+02
7.041658291457e+02
7.142110552764e+02
7.242562814070e+02
7.343015075377e+02
7.443467336683e+02
7.543919597990e+02
7.644371859296e+02
7.744824120603e+02
7.845276381910e+02
7.945728643216e+02
8.046180904523e+02
8.146633165829e+02
8.247085427136e+02
8.347537688442e+02
8.447989949749e+02
8.548442211055e+02
8.648894472362e+02
8.749346733668e+02
8.849798994975e+02
8.950251256281e+02
9.050703517588e+02
9.151155778894e+02
9.251608040201e+02
9.352060301508e+02
9.452512562814e+02
9.552964824121e+02
9.653417085427e+02
9.753869346734e+02
9.854321608040e+02
9.954773869347e+02
1.005522613065e+03
1.015567839196e+03
1.025613065327e+03
1.035658291457e+03
1.045703517588e+03
1.055748743719e+03
1.065793969849e+03
1.075839195980e+03
1.085884422111e+03
1.095929648241e+03
1.105974874372e+03
1.116020100503e+03
1.126065326633e+03
1.136110552764e+03
1.146155778894e+03
1.156201005025e+03
1.166246231156e+03
1.176291457286e+03
1.186336683417e+03
1.196381909548e+03
1.206427135678e+03
1.216472361809e+03
1.226517587940e+03
1.236562814070e+03
1.246608040201e+03
1.256653266332e+03
1.266698492462e+03
1.276743718593e+03
1.286788944724e+03
1.296834170854e+03
1.306879396985e+03
1.316924623116e+03
1.326969849246e+03
1.337015075377e+03
1.347060301508e+03
1.357105527638e+03
1.367150753769e+03
1.377195979899e+03
1.387241206030e+03
1.397286432161e+03
1.407331658291e+03
1.417376884422e+03
1.427422110553e+03
1.437467336683e+03
1.447512562814e+03
1.457557788945e+03
1.467603015075e+03
1.477648241206e+03
1.487693467337e+03
1.497738693467e+03
1.507783919598e+03
1.517829145729e+03
1.527874371859e+03
1.537919597990e+03
1.547964824121e+03
1.558010050251e+03
1.568055276382e+03
1.578100502513e+03
1.588145728643e+03
1.598190954774e+03
1.608236180905e+03
1.618281407035e+03
1.628326633166e+03
1.638371859296e+03
1.648417085427e+03
1.658462311558e+03
1.668507537688e+03
1.678552763819e+03
1.688597989950e+03
1.698643216080e+03
1.708688442211e+03
1.718733668342e+03
1.728778894472e+03
1.738824120603e+03
1.748869346734e+03
1.758914572864e+03
1.768959798995e+03
1.779005025126e+03
1.789050251256e+03
1.799095477387e+03
1.809140703518e+03
1.819185929648e+03
1.829231155779e+03
1.839276381910e+03
1.849321608040e+03
1.859366834171e+03
1.869412060302e+03
1.879457286432e+03
1.889502512563e+03
1.899547738693e+03
1.909592964824e+03
1.919638190955e+03
1.929683417085e+03
1.939728643216e+03
1.949773869347e+03
1.959819095477e+03
1.969864321608e+03
1.979909547739e+03
1.989954773869e+03
2.000000000000e+03
</indep>
<dep ac.v(in) frequency>
1.000000000000e+00+j0.000000000000e+00
1.000000000000e+00+j0.000000000000e+00
1.000000000000e+00+j0.000000000000e+00
1.000000000000e+00+j0.000000000000e+00
1.000000000000e+00+j0.000000000000e+00
1.000000000000e+00+j0.000000000000e+00
1.000000000000e+00+j0.000000000000e+00
1.000000000000e+00+j0.000000000000e+00
1.000000000000e+00+j0.000000000000e+00
1.000000000000e+00+j0.000000000000e+00
1.000000000000e+00+j0.000000000000e+00
1.000000000000e+00+j0.000000000000e+00
1.000000000000e+00+j0.000000000000e+00
1.000000000000e+00+j0.000000000000e+00
1.000000000000e+00+j0.000000000000e+00
1.000000000000e+00+j0.000000000000e+00
1.000000000000e+00+j0.000000000000e+00
1.000000000000e+00+j0.000000000000e+00
1.000000000000e+00+j0.000000000000e+00
1.000000000000e+00+j0.000000000000e+00
1.000000000000e+00+j0.000000000000e+00
1.000000000000e+00+j0.000000000000e+00
1.000000000000e+00+j0.000000000000e+00
1.000000000000e+00+j0.000000000000e+00
1.000000000000e+00+j0.000000000000e+00
1.000000000000e+00+j0.000000000000e+00
1.000000000000e+00+j0.000000000000e+00
1.000000000000e+00+j0.000000000000e+00
1.000000000000e+00+j0.000000000000e+00
1.000000000000e+00+j0.000000000000e+00
1.000000000000e+00+j0.000000000000e+00
1.000000000000e+00+j0.000000000000e+00
1.000000000000e+00+j0.000000000000e+00
1.000000000000e+00+j0.000000000000e+00
1.000000000000e+00+j0.000000000000e+00
1.000000000000e+00+j0.000000000000e+00
1.000000000000e+00+j0.000000000000e+00
1.000000000000e+00+j0.000000000000e+00
1.000000000000e+00+j0.000000000000e+00
1.000000000000e+00+j0.000000000000e+00
1.000000000000e+00+j0.000000000000e+00
1.000000000000e+00+j0.000000000000e+00
1.000000000000e+00+j0.000000000000e+00
1.000000000000e+00+j0.000000000000e+00
1.000000000000e+00+j0.000000000000e+00
1.000000000000e+00+j0.000000000000e+00
1.000000000000e+00+j0.000000000000e+00
1.000000000000e+00+j0.000000000000e+00
1.000000000000e+00+j0.000000000000e+00
1.000000000000e+00+j0.000000000000e+00
1.000000000000e+00+j0.000000000000e+00
1.000000000000e+00+j0.000000000000e+00
1.000000000000e+00+j0.000000000000e+00
1.000000000000e+00+j0.000000000000e+00
1.000000000000e+00+j0.000000000000e+00
1.000000000000e+00+j0.000000000000e+00
1.000000000000e+00+j0.000000000000e+00
1.000000000000e+00+j0.000000000000e+00
1.000000000000e+00+j0.000000000000e+00
1.000000000000e+00+j0.000000000000e+00
1.000000000000e+00+j0.000000000000e+00
1.000000000000e+00+j0.000000000000e+00
1.000000000000e+00+j0.000000000000e+00
1.000000000000e+00+j0.000000000000e+00
1.000000000000e+00+j0.000000000000e+00
1.000000000000e+00+j0.000000000000e+00
1.000000000000e+00+j0.000000000000e+00
1.000000000000e+00+j0.000000000000e+00
1.000000000000e+00+j0.000000000000e+00
1.000000000000e+00+j0.000000000000e+00
1.000000000000e+00+j0.000000000000e+00
1.000000000000e+00+j0.000000000000e+00
1.000000000000e+00+j0.000000000000e+00
1.000000000000e+00+j0.000000000000e+00
1.000000000000e+00+j0.000000000000e+00
1.000000000000e+00+j0.000000000000e+00
1.000000000000e+00+j0.000000000000e+00
1.000000000000e+00+j0.000000000000e+00
1.000000000000e+00+j0.000000000000e+00
1.000000000000e+00+j0.000000000000e+00
1.000000000000e+00+j0.000000000000e+00
1.000000000000e+00+j0.000000000000e+00
1.000000000000e+00+j0.000000000000e+00
1.000000000000e+00+j0.000000000000e+00
1.000000000000e+00+j0.000000000000e+00
1.000000000000e+00+j0.000000000000e+00
1.000000000000e+00+j0.000000000000e+00
1.000000000000e+00+j0.000000000000e+00
1.000000000000e+00+j0.000000000000e+00
1.000000000000e+00+j0.000000000000e+00
1.000000000000e+00+j0.000000000000e+00
1.000000000000e+00+j0.000000000000e+00
1.000000000000e+00+j0.000000000000e+00
1.000000000000e+00+j0.000000000000e+00
1.000000000000e+00+j0.000000000000e+00
1.000000000000e+00+j0.000000000000e+00
1.000000000000e+00+j0.000000000000e+00
1.000000000000e+00+j0.000000000000e+00
1.000000000000e+00+j0.000000000000e+00
1.000000000000e+00+j0.000000000000e+00
1.000000000000e+00+j0.000000000000e+00
1.000000000000e+00+j0.000000000000e+00
1.000000000000e+00+j0.000000000000e+00
1.000000000000e+00+j0.000000000000e+00
1.000000000000e+00+j0.000000000000e+00
1.000000000000e+00+j0.000000000000e+00
1.000000000000e+00+j0.000000000000e+00
1.000000000000e+00+j0.000000000000e+00
1.000000000000e+00+j0.000000000000e+00
1.000000000000e+00+j0.000000000000e+00
1.000000000000e+00+j0.000000000000e+00
1.000000000000e+00+j0.000000000000e+00
1.000000000000e+00+j0.000000000000e+00
1.000000000000e+00+j0.000000000000e+00
1.000000000000e+00+j0.000000000000e+00
1.000000000000e+00+j0.000000000000e+00
1.000000000000e+00+j0.000000000000e+00
1.000000000000e+00+j0.000000000000e+00
1.000000000000e+00+j0.000000000000e+00
1.000000000000e+00+j0.000000000000e+00
1.000000000000e+00+j0.000000000000e+00
1.000000000000e+00+j0.000000000000e+00
1.000000000000e+00+j0.000000000000e+00
1.000000000000e+00+j0.000000000000e+00
1.000000000000e+00+j0.000000000000e+00
1.000000000000e+00+j0.000000000000e+00
1.000000000000e+00+j0.000000000000e+00
1.000000000000e+00+j0.000000000000e+00
1.000000000000e+00+j0.000000000000e+00
1.000000000000e+00+j0.000000000000e+00
1.000000000000e+00+j0.000000000000e+00
1.000000000000e+00+j0.000000000000e+00
1.000000000000e+00+j0.000000000000e+00
1.000000000000e+00+j0.000000000000e+00
1.000000000000e+00+j0.000000000000e+00
1.000000000000e+00+j0.000000000000e+00
1.000000000000e+00+j0.000000000000e+00
1.000000000000e+00+j0.000000000000e+00
1.000000000000e+00+j0.000000000000e+00
1.000000000000e+00+j0.000000000000e+00
1.000000000000e+00+j0.000000000000e+00
1.000000000000e+00+j0.000000000000e+00
1.000000000000e+00+j0.000000000000e+00
1.000000000000e+00+j0.000000000000e+00
1.000000000000e+00+j0.000000000000e+00
1.000000000000e+00+j0.000000000000e+00
1.000000000000e+00+j0.000000000000e+00
1.000000000000e+00+j0.000000000000e+00
1.000000000000e+00+j0.000000000000e+00
1.000000000000e+00+j0.000000000000e+00
1.000000000000e+00+j0.000000000000e+00
1.000000000000e+00+j0.000000000000e+00
1.000000000000e+00+j0.000000000000e+00
1.000000000000e+00+j0.000000000000e+00
1.000000000000e+00+j0.000000000000e+00
1.000000000000e+00+j0.000000000000e+00
1.000000000000e+00+j0.000000000000e+00
1.000000000000e+00+j0.000000000000e+00
1.000000000000e+00+j0.000000000000e+00
1.000000000000e+00+j0.000000000000e+00
1.000000000000e+00+j0.000000000000e+00
1.000000000000e+00+j0.000000000000e+00
1.000000000000e+00+j0.000000000000e+00
1.000000000000e+00+j0.000000000000e+00
1.000000000000e+00+j0.000000000000e+00
1.000000000000e+00+j0.000000000000e+00
1.000000000000e+00+j0.000000000000e+00
1.000000000000e+00+j0.000000000000e+00
1.000000000000e+00+j0.000000000000e+00
1.000000000000e+00+j0.000000000000e+00
1.000000000000e+00+j0.000000000000e+00
1.000000000000e+00+j0.000000000000e+00
1.000000000000e+00+j0.000000000000e+00
1.000000000000e+00+j0.000000000000e+00
1.000000000000e+00+j0.000000000000e+00
1.000000000000e+00+j0.000000000000e+00
1.000000000000e+00+j0.000000000000e+00
1.000000000000e+00+j0.000000000000e+00
1.000000000000e+00+j0.000000000000e+00
1.000000000000e+00+j0.000000000000e+00
1.000000000000e+00+j0.000000000000e+00
1.000000000000e+00+j0.000000000000e+00
1.000000000000e+00+j0.000000000000e+00
1.000000000000e+00+j0.000000000000e+00
1.000000000000e+00+j0.000000000000e+00
1.000000000000e+00+j0.000000000000e+00
1.000000000000e+00+j0.000000000000e+00
1.000000000000e+00+j0.000000000000e+00
1.000000000000e+00+j0.000000000000e+00
1.000000000000e+00+j0.000000000000e+00
1.000000000000e+00+j0.000000000000e+00
1.000000000000e+00+j0.000000000000e+00
1.000000000000e+00+j0.000000000000e+00
1.000000000000e+00+j0.000000000000e+00
1.000000000000e+00+j0.000000000000e+00
1.000000000000e+00+j0.000000000000e+00
1.000000000000e+00+j0.000000000000e+00
1.000000000000e+00+j0.000000000000e+00
1.000000000000e+00+j0.000000000000e+00
1.000000000000e+00+j0.000000000000e+00
</dep>
<dep ac.v(out) frequency>
1.100583004379e-05+j3.317485330109e-03
1.340892840709e-03+j3.659364490043e-02
4.871676647078e-03+j6.962717439136e-02
1.055686785889e-02+j1.022028394904e-01
1.832264294877e-02+j1.341153373188e-01
2.807020493511e-02+j1.651734498338e-01
3.967884945134e-02+j1.952035818256e-01
5.300956338375e-02+j2.240525598462e-01
6.790896412217e-02+j2.515896196468e-01
8.421338399722e-02+j2.777075619297e-01
1.017529153932e-01+j3.023231046450e-01
1.203552546523e-01+j3.253765008877e-01
1.398492136889e-01+j3.468305221855e-01
1.600678033942e-01+j3.666689265683e-01
1.808508288266e-01+j3.848945395031e-01
2.020469698527e-01+j4.015270748356e-01
2.235153501538e-01+j4.166008142088e-01
2.451266210136e-01+j4.301622492549e-01
2.667636035837e-01+j4.422677733984e-01
2.883215445154e-01+j4.529814913257e-01
3.097080456112e-01+j4.623731956925e-01
3.308427293796e-01+j4.705165435946e-01
3.516567001235e-01+j4.774874504966e-01
3.720918554700e-01+j4.833627070461e-01
3.921000969818e-01+j4.882188145992e-01
4.116424814535e-01+j4.921310281991e-01
4.306883472971e-01+j4.951725909212e-01
4.492144434930e-01+j4.974141405813e-01
4.672040822333e-01+j4.989232684270e-01
4.846463307642e-01+j4.997642092437e-01
5.015352531378e-01+j4.999976429922e-01
5.178692085995e-01+j4.996805893609e-01
5.336502101274e-01+j4.988663782601e-01
5.488833441338e-01+j4.976046811137e-01
5.635762504425e-01+j4.959415896854e-01
5.777386602784e-01+j4.939197310273e-01
5.913819890609e-01+j4.915784088783e-01
6.045189801905e-01+j4.889537634377e-01
6.171633956865e-01+j4.860789428799e-01
6.293297494130e-01+j4.829842812316e-01
6.410330786603e-01+j4.796974783377e-01
6.522887499900e-01+j4.762437785699e-01
6.631122954663e-01+j4.726461457240e-01
6.735192756609e-01+j4.689254322108e-01
6.835251661037e-01+j4.651005411807e-01
6.931452641526e-01+j4.611885806646e-01
7.023946135482e-01+j4.572050091662e-01
7.112879442115e-01+j4.531637724167e-01
7.198396251059e-01+j4.490774312224e-01
7.280636282469e-01+j4.449572805010e-01
7.359735021662e-01+j4.408134597258e-01
7.435823533569e-01+j4.366550550871e-01
7.509028344105e-01+j4.324901937441e-01
7.579471377325e-01+j4.283261305776e-01
7.647269938712e-01+j4.241693278821e-01
7.712536736325e-01+j4.200255284395e-01
7.775379932693e-01+j4.158998224237e-01
7.835903221379e-01+j4.117967085708e-01
7.894205923068e-01+j4.077201500401e-01
7.950383096789e-01+j4.036736253731e-01
8.004525662574e-01+j3.996601749353e-01
8.056720532472e-01+j3.956824432087e-01
8.107050747298e-01+j3.917427172739e-01
8.155595616970e-01+j3.878429618049e-01
8.202430862654e-01+j3.839848508720e-01
8.247628759245e-01+j3.801697968293e-01
8.291258276989e-01+j3.763989765415e-01
8.333385221304e-01+j3.726733551838e-01
8.374072370008e-01+j3.689937078318e-01
8.413379607383e-01+j3.653606390391e-01
8.451364054595e-01+j3.617746005824e-01
8.488080196143e-01+j3.582359075424e-01
8.523580002084e-01+j3.547447528705e-01
8.557913045866e-01+j3.513012205794e-01
8.591126617695e-01+j3.479052976844e-01
8.623265833360e-01+j3.445568850104e-01
8.654373738559e-01+j3.412558069679e-01
8.684491408730e-01+j3.380018203944e-01
8.713658044482e-01+j3.347946225472e-01
8.741911062707e-01+j3.316338583256e-01
8.769286183481e-01+j3.285191267951e-01
8.795817512887e-01+j3.254499870772e-01
8.821537621880e-01+j3.224259636654e-01
8.846477621342e-01+j3.194465512181e-01
8.870667233476e-01+j3.165112188801e-01
8.894134859667e-01+j3.136194141747e-01
8.916907644980e-01+j3.107705665069e-01
8.939011539421e-01+j3.079640903143e-01
8.960471356122e-01+j3.051993878982e-01
8.981310826577e-01+j3.024758519648e-01
9.001552653079e-01+j2.997928679044e-01
9.021218558486e-01+j2.971498158319e-01
9.040329333443e-01+j2.945460724118e-01
9.058904881200e-01+j2.919810124883e-01
9.076964260130e-01+j2.894540105375e-01
9.094525724070e-01+j2.869644419597e-01
9.111606760602e-01+j2.845116842271e-01
9.128224127367e-01+j2.820951178987e-01
9.144393886529e-01+j2.797141275177e-01
9.160131437477e-01+j2.773681024004e-01
9.175451547851e-01+j2.750564373279e-01
9.190368382999e-01+j2.727785331503e-01
9.204895533930e-01+j2.705337973108e-01
9.219046043847e-01+j2.683216442984e-01
9.232832433346e-01+j2.661414960358e-01
9.246266724334e-01+j2.639927822085e-01
9.259360462748e-01+j2.618749405418e-01
9.272124740137e-01+j2.597874170299e-01
9.284570214157e-01+j2.577296661224e-01
9.296707128050e-01+j2.557011508727e-01
9.308545329155e-01+j2.537013430516e-01
9.320094286500e-01+j2.517297232301e-01
9.331363107530e-01+j2.497857808349e-01
9.342360554008e-01+j2.478690141787e-01
9.353095057147e-01+j2.459789304684e-01
9.363574731992e-01+j2.441150457944e-01
9.373807391115e-01+j2.422768851011e-01
9.383800557640e-01+j2.404639821435e-01
9.393561477650e-01+j2.386758794288e-01
9.403097131987e-01+j2.369121281464e-01
9.412414247501e-01+j2.351722880879e-01
9.421519307758e-01+j2.334559275565e-01
9.430418563240e-01+j2.317626232700e-01
9.439118041074e-01+j2.300919602554e-01
9.447623554291e-01+j2.284435317385e-01
9.455940710668e-01+j2.268169390282e-01
9.464074921147e-01+j2.252117913962e-01
9.472031407872e-01+j2.236277059536e-01
9.479815211855e-01+j2.220643075245e-01
9.487431200289e-01+j2.205212285172e-01
9.494884073531e-01+j2.189981087937e-01
9.502178371762e-01+j2.174945955382e-01
9.509318481359e-01+j2.160103431244e-01
9.516308640964e-01+j2.145450129822e-01
9.523152947296e-01+j2.130982734648e-01
9.529855360696e-01+j2.116697997158e-01
9.536419710433e-01+j2.102592735362e-01
9.542849699767e-01+j2.088663832532e-01
9.549148910803e-01+j2.074908235885e-01
9.555320809119e-01+j2.061322955290e-01
9.561368748208e-01+j2.047905061978e-01
9.567295973711e-01+j2.034651687274e-01
9.573105627485e-01+j2.021560021335e-01
9.578800751489e-01+j2.008627311914e-01
9.584384291498e-01+j1.995850863132e-01
9.589859100676e-01+j1.983228034276e-01
9.595227942984e-01+j1.970756238611e-01
9.600493496448e-01+j1.958432942211e-01
9.605658356301e-01+j1.946255662814e-01
9.610725037977e-01+j1.934221968691e-01
9.615695979999e-01+j1.922329477540e-01
9.620573546733e-01+j1.910575855399e-01
9.625360031040e-01+j1.898958815577e-01
9.630057656817e-01+j1.887476117611e-01
9.634668581431e-01+j1.876125566240e-01
9.639194898061e-01+j1.864905010397e-01
9.643638637942e-01+j1.853812342233e-01
9.648001772520e-01+j1.842845496142e-01
9.652286215523e-01+j1.832002447829e-01
9.656493824950e-01+j1.821281213378e-01
9.660626404976e-01+j1.810679848355e-01
9.664685707794e-01+j1.800196446921e-01
9.668673435371e-01+j1.789829140968e-01
9.672591241151e-01+j1.779576099277e-01
9.676440731678e-01+j1.769435526688e-01
9.680223468165e-01+j1.759405663297e-01
9.683940968002e-01+j1.749484783663e-01
9.687594706208e-01+j1.739671196040e-01
9.691186116819e-01+j1.729963241623e-01
9.694716594237e-01+j1.720359293810e-01
9.698187494518e-01+j1.710857757487e-01
9.701600136618e-01+j1.701457068325e-01
9.704955803589e-01+j1.692155692090e-01
9.708255743732e-01+j1.682952123981e-01
9.711501171709e-01+j1.673844887970e-01
9.714693269611e-01+j1.664832536167e-01
9.717833187992e-01+j1.655913648195e-01
9.720922046859e-01+j1.647086830583e-01
9.723960936632e-01+j1.638350716171e-01
9.726950919065e-01+j1.629703963531e-01
9.729893028141e-01+j1.621145256399e-01
9.732788270923e-01+j1.612673303126e-01
9.735637628388e-01+j1.604286836135e-01
9.738442056223e-01+j1.595984611396e-01
9.741202485597e-01+j1.587765407913e-01
9.743919823903e-01+j1.579628027220e-01
9.746594955476e-01+j1.571571292893e-01
9.749228742288e-01+j1.563594050074e-01
9.751822024613e-01+j1.555695165000e-01
9.754375621677e-01+j1.547873524550e-01
9.756890332279e-01+j1.540128035803e-01
9.759366935396e-01+j1.532457625600e-01
9.761806190762e-01+j1.524861240121e-01
9.764208839432e-01+j1.517337844476e-01
9.766575604327e-01+j1.509886422296e-01
9.768907190758e-01+j1.502505975342e-01
9.771204286932e-01+j1.495195523120e-01
9.773467564448e-01+j1.487954102506e-01
9.775697678765e-01+j1.480780767378e-01
9.777895269668e-01+j1.473674588260e-01
</dep>
<dep ac.s21_db_clipped frequency>
-4.958377198014e+01+j0.000000000000e+00
-2.872605928001e+01+j0.000000000000e+00
-2.312321545303e+01+j0.000000000000e+00
-1.976464914508e+01+j0.000000000000e+00
-1.737011881363e+01+j0.000000000000e+00
-1.551754416654e+01+j0.000000000000e+00
-1.401440929365e+01+j0.000000000000e+00
-1.275645772850e+01+j0.000000000000e+00
-1.168072894176e+01+j0.000000000000e+00
-1.074618880778e+01+j0.000000000000e+00
-9.924531386525e+00+j0.000000000000e+00
