<Qucs Dataset 25.1.2>
<indep frequency 200>
1.000000000000e+00
5.124623115578e+01
1.014924623116e+02
1.517386934673e+02
2.019849246231e+02
2.522311557789e+02
3.024773869347e+02
3.527236180905e+02
4.029698492462e+02
4.532160804020e+02
5.034623115578e+02
5.537085427136e+02
6.039547738693e+02
6.542010050251e+02
7.044472361809e+02
7.546934673367e+02
8.049396984925e+02
8.551859296482e+02
9.054321608040e+02
9.556783919598e+02
1.005924623116e+03
1.056170854271e+03
1.106417085427e+03
1.156663316583e+03
1.206909547739e+03
1.257155778894e+03
1.307402010050e+03
1.357648241206e+03
1.407894472362e+03
1.458140703518e+03
1.508386934673e+03
1.558633165829e+03
1.608879396985e+03
1.659125628141e+03
1.709371859296e+03
1.759618090452e+03
1.809864321608e+03
1.860110552764e+03
1.910356783920e+03
1.960603015075e+03
2.010849246231e+03
2.061095477387e+03
2.111341708543e+03
2.161587939698e+03
2.211834170854e+03
2.262080402010e+03
2.312326633166e+03
2.362572864322e+03
2.412819095477e+03
2.463065326633e+03
2.513311557789e+03
2.563557788945e+03
2.613804020100e+03
2.664050251256e+03
2.714296482412e+03
2.764542713568e+03
2.814788944724e+03
2.865035175879e+03
2.915281407035e+03
2.965527638191e+03
3.015773869347e+03
3.066020100503e+03
3.116266331658e+03
3.166512562814e+03
3.216758793970e+03
3.267005025126e+03
3.317251256281e+03
3.367497487437e+03
3.417743718593e+03
3.467989949749e+03
3.518236180905e+03
3.568482412060e+03
3.618728643216e+03
3.668974874372e+03
3.719221105528e+03
3.769467336683e+03
3.819713567839e+03
3.869959798995e+03
3.920206030151e+03
3.970452261307e+03
4.020698492462e+03
4.070944723618e+03
4.121190954774e+03
4.171437185930e+03
4.221683417085e+03
4.271929648241e+03
4.322175879397e+03
4.372422110553e+03
4.422668341709e+03
4.472914572864e+03
4.523160804020e+03
4.573407035176e+03
4.623653266332e+03
4.673899497487e+03
4.724145728643e+03
4.774391959799e+03
4.824638190955e+03
4.874884422111e+03
4.925130653266e+03
4.975376884422e+03
5.025623115578e+03
5.075869346734e+03
5.126115577889e+03
5.176361809045e+03
5.226608040201e+03
5.276854271357e+03
5.327100502513e+03
5.377346733668e+03
5.427592964824e+03
5.477839195980e+03
5.528085427136e+03
5.578331658291e+03
5.628577889447e+03
5.678824120603e+03
5.729070351759e+03
5.779316582915e+03
5.829562814070e+03
5.879809045226e+03
5.930055276382e+03
5.980301507538e+03
6.030547738693e+03
6.080793969849e+03
6.131040201005e+03
6.181286432161e+03
6.231532663317e+03
6.281778894472e+03
6.332025125628e+03
6.382271356784e+03
6.432517587940e+03
6.482763819095e+03
6.533010050251e+03
6.583256281407e+03
6.633502512563e+03
6.683748743719e+03
6.733994974874e+03
6.784241206030e+03
6.834487437186e+03
6.884733668342e+03
6.934979899498e+03
6.985226130653e+03
7.035472361809e+03
7.085718592965e+03
7.135964824121e+03
7.186211055276e+03
7.236457286432e+03
7.286703517588e+03
7.336949748744e+03
7.387195979900e+03
7.437442211055e+03
7.487688442211e+03
7.537934673367e+03
7.588180904523e+03
7.638427135678e+03
7.688673366834e+03
7.738919597990e+03
7.789165829146e+03
7.839412060302e+03
7.889658291457e+03
7.939904522613e+03
7.990150753769e+03
8.040396984925e+03
8.090643216080e+03
8.140889447236e+03
8.191135678392e+03
8.241381909548e+03
8.291628140704e+03
8.341874371859e+03
8.392120603015e+03
8.442366834171e+03
8.492613065327e+03
8.542859296482e+03
8.593105527638e+03
8.643351758794e+03
8.693597989950e+03
8.743844221106e+03
8.794090452261e+03
8.844336683417e+03
8.894582914573e+03
8.944829145729e+03
8.995075376884e+03
9.045321608040e+03
9.095567839196e+03
9.145814070352e+03
9.196060301508e+03
9.246306532663e+03
9.296552763819e+03
9.346798994975e+03
9.397045226131e+03
9.447291457286e+03
9.497537688442e+03
9.547783919598e+03
9.598030150754e+03
9.648276381910e+03
9.698522613065e+03
9.748768844221e+03
9.799015075377e+03
9.849261306533e+03
9.899507537688e+03
9.949753768844e+03
1.000000000000e+04
</indep>
<dep ac.v(in) frequency>
1.000000000000e+00+j0.000000000000e+00
1.000000000000e+00+j0.000000000000e+00
1.000000000000e+00+j0.000000000000e+00
1.000000000000e+00+j0.000000000000e+00
1.000000000000e+00+j0.000000000000e+00
1.000000000000e+00+j0.000000000000e+00
1.000000000000e+00+j0.000000000000e+00
1.000000000000e+00+j0.000000000000e+00
1.000000000000e+00+j0.000000000000e+00
1.000000000000e+00+j0.000000000000e+00
1.000000000000e+00+j0.000000000000e+00
1.000000000000e+00+j0.000000000000e+00
1.000000000000e+00+j0.000000000000e+00
1.000000000000e+00+j0.000000000000e+00
1.000000000000e+00+j0.000000000000e+00
1.000000000000e+00+j0.000000000000e+00
1.000000000000e+00+j0.000000000000e+00
1.000000000000e+00+j0.000000000000e+00
1.000000000000e+00+j0.000000000000e+00
1.000000000000e+00+j0.000000000000e+00
1.000000000000e+00+j0.000000000000e+00
1.000000000000e+00+j0.000000000000e+00
1.000000000000e+00+j0.000000000000e+00
1.000000000000e+00+j0.000000000000e+00
1.000000000000e+00+j0.000000000000e+00
1.000000000000e+00+j0.000000000000e+00
1.000000000000e+00+j0.000000000000e+00
1.000000000000e+00+j0.000000000000e+00
1.000000000000e+00+j0.000000000000e+00
1.000000000000e+00+j0.000000000000e+00
1.000000000000e+00+j0.000000000000e+00
1.000000000000e+00+j0.000000000000e+00
1.000000000000e+00+j0.000000000000e+00
1.000000000000e+00+j0.000000000000e+00
1.000000000000e+00+j0.000000000000e+00
1.000000000000e+00+j0.000000000000e+00
1.000000000000e+00+j0.000000000000e+00
1.000000000000e+00+j0.000000000000e+00
1.000000000000e+00+j0.000000000000e+00
1.000000000000e+00+j0.000000000000e+00
1.000000000000e+00+j0.000000000000e+00
1.000000000000e+00+j0.000000000000e+00
1.000000000000e+00+j0.000000000000e+00
1.000000000000e+00+j0.000000000000e+00
1.000000000000e+00+j0.000000000000e+00
1.000000000000e+00+j0.000000000000e+00
1.000000000000e+00+j0.000000000000e+00
1.000000000000e+00+j0.000000000000e+00
1.000000000000e+00+j0.000000000000e+00
1.000000000000e+00+j0.000000000000e+00
1.000000000000e+00+j0.000000000000e+00
1.000000000000e+00+j0.000000000000e+00
1.000000000000e+00+j0.000000000000e+00
1.000000000000e+00+j0.000000000000e+00
1.000000000000e+00+j0.000000000000e+00
1.000000000000e+00+j0.000000000000e+00
1.000000000000e+00+j0.000000000000e+00
1.000000000000e+00+j0.000000000000e+00
1.000000000000e+00+j0.000000000000e+00
1.000000000000e+00+j0.000000000000e+00
1.000000000000e+00+j0.000000000000e+00
1.000000000000e+00+j0.000000000000e+00
1.000000000000e+00+j0.000000000000e+00
1.000000000000e+00+j0.000000000000e+00
1.000000000000e+00+j0.000000000000e+00
1.000000000000e+00+j0.000000000000e+00
1.000000000000e+00+j0.000000000000e+00
1.000000000000e+00+j0.000000000000e+00
1.000000000000e+00+j0.000000000000e+00
1.000000000000e+00+j0.000000000000e+00
1.000000000000e+00+j0.000000000000e+00
1.000000000000e+00+j0.000000000000e+00
1.000000000000e+00+j0.000000000000e+00
1.000000000000e+00+j0.000000000000e+00
1.000000000000e+00+j0.000000000000e+00
1.000000000000e+00+j0.000000000000e+00
1.000000000000e+00+j0.000000000000e+00
1.000000000000e+00+j0.000000000000e+00
1.000000000000e+00+j0.000000000000e+00
1.000000000000e+00+j0.000000000000e+00
1.000000000000e+00+j0.000000000000e+00
1.000000000000e+00+j0.000000000000e+00
1.000000000000e+00+j0.000000000000e+00
1.000000000000e+00+j0.000000000000e+00
1.000000000000e+00+j0.000000000000e+00
1.000000000000e+00+j0.000000000000e+00
1.000000000000e+00+j0.000000000000e+00
1.000000000000e+00+j0.000000000000e+00
1.000000000000e+00+j0.000000000000e+00
1.000000000000e+00+j0.000000000000e+00
1.000000000000e+00+j0.000000000000e+00
1.000000000000e+00+j0.000000000000e+00
1.000000000000e+00+j0.000000000000e+00
1.000000000000e+00+j0.000000000000e+00
1.000000000000e+00+j0.000000000000e+00
1.000000000000e+00+j0.000000000000e+00
1.000000000000e+00+j0.000000000000e+00
1.000000000000e+00+j0.000000000000e+00
1.000000000000e+00+j0.000000000000e+00
1.000000000000e+00+j0.000000000000e+00
1.000000000000e+00+j0.000000000000e+00
1.000000000000e+00+j0.000000000000e+00
1.000000000000e+00+j0.000000000000e+00
1.000000000000e+00+j0.000000000000e+00
1.000000000000e+00+j0.000000000000e+00
1.000000000000e+00+j0.000000000000e+00
1.000000000000e+00+j0.000000000000e+00
1.000000000000e+00+j0.000000000000e+00
1.000000000000e+00+j0.000000000000e+00
1.000000000000e+00+j0.000000000000e+00
1.000000000000e+00+j0.000000000000e+00
1.000000000000e+00+j0.000000000000e+00
1.000000000000e+00+j0.000000000000e+00
1.000000000000e+00+j0.000000000000e+00
1.000000000000e+00+j0.000000000000e+00
1.000000000000e+00+j0.000000000000e+00
1.000000000000e+00+j0.000000000000e+00
1.000000000000e+00+j0.000000000000e+00
1.000000000000e+00+j0.000000000000e+00
1.000000000000e+00+j0.000000000000e+00
1.000000000000e+00+j0.000000000000e+00
1.000000000000e+00+j0.000000000000e+00
1.000000000000e+00+j0.000000000000e+00
1.000000000000e+00+j0.000000000000e+00
1.000000000000e+00+j0.000000000000e+00
1.000000000000e+00+j0.000000000000e+00
1.000000000000e+00+j0.000000000000e+00
1.000000000000e+00+j0.000000000000e+00
1.000000000000e+00+j0.000000000000e+00
1.000000000000e+00+j0.000000000000e+00
1.000000000000e+00+j0.000000000000e+00
1.000000000000e+00+j0.000000000000e+00
1.000000000000e+00+j0.000000000000e+00
1.000000000000e+00+j0.000000000000e+00
1.000000000000e+00+j0.000000000000e+00
1.000000000000e+00+j0.000000000000e+00
1.000000000000e+00+j0.000000000000e+00
1.000000000000e+00+j0.000000000000e+00
1.000000000000e+00+j0.000000000000e+00
1.000000000000e+00+j0.000000000000e+00
1.000000000000e+00+j0.000000000000e+00
1.000000000000e+00+j0.000000000000e+00
1.000000000000e+00+j0.000000000000e+00
1.000000000000e+00+j0.000000000000e+00
1.000000000000e+00+j0.000000000000e+00
1.000000000000e+00+j0.000000000000e+00
1.000000000000e+00+j0.000000000000e+00
1.000000000000e+00+j0.000000000000e+00
1.000000000000e+00+j0.000000000000e+00
1.000000000000e+00+j0.000000000000e+00
1.000000000000e+00+j0.000000000000e+00
1.000000000000e+00+j0.000000000000e+00
1.000000000000e+00+j0.000000000000e+00
1.000000000000e+00+j0.000000000000e+00
1.000000000000e+00+j0.000000000000e+00
1.000000000000e+00+j0.000000000000e+00
1.000000000000e+00+j0.000000000000e+00
1.000000000000e+00+j0.000000000000e+00
1.000000000000e+00+j0.000000000000e+00
1.000000000000e+00+j0.000000000000e+00
1.000000000000e+00+j0.000000000000e+00
1.000000000000e+00+j0.000000000000e+00
1.000000000000e+00+j0.000000000000e+00
1.000000000000e+00+j0.000000000000e+00
1.000000000000e+00+j0.000000000000e+00
1.000000000000e+00+j0.000000000000e+00
1.000000000000e+00+j0.000000000000e+00
1.000000000000e+00+j0.000000000000e+00
1.000000000000e+00+j0.000000000000e+00
1.000000000000e+00+j0.000000000000e+00
1.000000000000e+00+j0.000000000000e+00
1.000000000000e+00+j0.000000000000e+00
1.000000000000e+00+j0.000000000000e+00
1.000000000000e+00+j0.000000000000e+00
1.000000000000e+00+j0.000000000000e+00
1.000000000000e+00+j0.000000000000e+00
1.000000000000e+00+j0.000000000000e+00
1.000000000000e+00+j0.000000000000e+00
1.000000000000e+00+j0.000000000000e+00
1.000000000000e+00+j0.000000000000e+00
1.000000000000e+00+j0.000000000000e+00
1.000000000000e+00+j0.000000000000e+00
1.000000000000e+00+j0.000000000000e+00
1.000000000000e+00+j0.000000000000e+00
1.000000000000e+00+j0.000000000000e+00
1.000000000000e+00+j0.000000000000e+00
1.000000000000e+00+j0.000000000000e+00
1.000000000000e+00+j0.000000000000e+00
1.000000000000e+00+j0.000000000000e+00
1.000000000000e+00+j0.000000000000e+00
1.000000000000e+00+j0.000000000000e+00
1.000000000000e+00+j0.000000000000e+00
1.000000000000e+00+j0.000000000000e+00
1.000000000000e+00+j0.000000000000e+00
1.000000000000e+00+j0.000000000000e+00
1.000000000000e+00+j0.000000000000e+00
1.000000000000e+00+j0.000000000000e+00
1.000000000000e+00+j0.000000000000e+00
1.000000000000e+00+j0.000000000000e+00
1.000000000000e+00+j0.000000000000e+00
</dep>
<dep ac.v(out) frequency>
9.999998482450e-01-j3.895574299278e-04
9.996016232990e-01-j1.995540019731e-02
9.984392536039e-01-j3.947544131263e-02
9.965180625009e-01-j5.890512380415e-02
9.938468078681e-01-j7.820057773770e-02
9.904375828115e-01-j9.731894659344e-02
9.863056799057e-01-j1.162186976843e-01
9.814694218045e-01-j1.348599120095e-01
9.759499616759e-01-j1.532045494778e-01
9.697710574437e-01-j1.712166860684e-01
9.629588242151e-01-j1.888627202000e-01
9.555414695425e-01-j2.061115463214e-01
9.475490162983e-01-j2.229346944968e-01
9.390130179454e-01-j2.393064355057e-01
9.299662708625e-01-j2.552038516962e-01
9.204425281530e-01-j2.706068744883e-01
9.104762190389e-01-j2.854982900186e-01
9.001021775413e-01-j2.998637149218e-01
8.893553836849e-01-j3.136915446671e-01
8.782707199698e-01-j3.269728771833e-01
8.668827453350e-01-j3.397014147386e-01
8.552254883174e-01-j3.518733471715e-01
8.433322606062e-01-j3.634872196200e-01
8.312354917111e-01-j3.745437878686e-01
8.189665850199e-01-j3.850458643340e-01
8.065557951227e-01-j3.949981575611e-01
7.940321259295e-01-j4.044071079017e-01
7.814232488133e-01-j4.132807218192e-01
7.687554397667e-01-j4.216284070076e-01
7.560535343679e-01-j4.294608102467e-01
7.433408992120e-01-j4.367896596426e-01
7.306394183686e-01-j4.436276126377e-01
7.179694933698e-01-j4.499881109098e-01
7.053500552198e-01-j4.558852430395e-01
6.927985869274e-01-j4.613336155959e-01
6.803311551040e-01-j4.663482330822e-01
6.679624492333e-01-j4.709443870008e-01
6.557058272911e-01-j4.751375541331e-01
6.435733664883e-01-j4.789433039883e-01
6.315759180040e-01-j4.823772152594e-01
6.197231646781e-01-j4.854548010263e-01
6.080236807377e-01-j4.881914423665e-01
5.964849927331e-01-j4.906023299754e-01
5.851136409587e-01-j4.927024133519e-01
5.739152407325e-01-j4.945063570749e-01
5.628945429965e-01-j4.960285036782e-01
5.520554937836e-01-j4.972828426227e-01
5.414012921788e-01-j4.982829848649e-01
5.309344464686e-01-j4.990421425308e-01
5.206568282384e-01-j4.995731132148e-01
5.105697242363e-01-j4.998882684456e-01
5.006738858690e-01-j4.999995458776e-01
4.909695762424e-01-j4.999184447955e-01
4.814566146952e-01-j4.996560245423e-01
4.721344188098e-01-j4.992229055091e-01
4.630020439083e-01-j4.986292723508e-01
4.540582200680e-01-j4.978848791203e-01
4.453013867074e-01-j4.969990560392e-01
4.367297248111e-01-j4.959807176469e-01
4.283411868712e-01-j4.948383720984e-01
4.201335246346e-01-j4.935801313999e-01
4.121043147513e-01-j4.922137223957e-01
4.042509824221e-01-j4.907464983399e-01
3.965708231494e-01-j4.891854509039e-01
3.890610226937e-01-j4.875372224910e-01
3.817186753393e-01-j4.858081187429e-01
3.745408005720e-01-j4.840041211383e-01
3.675243582680e-01-j4.821308995985e-01
3.606662624933e-01-j4.801938250253e-01
3.539633940056e-01-j4.781979817080e-01
3.474126115521e-01-j4.761481795478e-01
3.410107620479e-01-j4.740489660525e-01
3.347546897191e-01-j4.719046380681e-01
3.286412442889e-01-j4.697192532153e-01
3.226672882800e-01-j4.674966410083e-01
3.168297035055e-01-j4.652404136381e-01
3.111253968120e-01-j4.629539764065e-01
3.055513051379e-01-j4.606405378019e-01
3.001043999442e-01-j4.583031192108e-01
2.947816910718e-01-j4.559445642626e-01
2.895802300759e-01-j4.535675478086e-01
2.844971130832e-01-j4.511745845352e-01
2.795294832160e-01-j4.487680372185e-01
2.746745326230e-01-j4.463501246234e-01
2.699295041536e-01-j4.439229290552e-01
2.652916927105e-01-j4.414884035728e-01
2.607584463110e-01-j4.390483788701e-01
2.563271668876e-01-j4.366045698375e-01
2.519953108525e-01-j4.341585818118e-01
2.477603894530e-01-j4.317119165266e-01
2.436199689371e-01-j4.292659777716e-01
2.395716705533e-01-j4.268220767739e-01
2.356131704000e-01-j4.243814373109e-01
2.317421991442e-01-j4.219452005652e-01
2.279565416234e-01-j4.195144297334e-01
2.242540363464e-01-j4.170901143982e-01
2.206325749042e-01-j4.146731746754e-01
2.170901013046e-01-j4.122644651436e-01
2.136246112395e-01-j4.098647785701e-01
2.102341512957e-01-j4.074748494382e-01
2.069168181174e-01-j4.050953572895e-01
2.036707575281e-01-j4.027269298868e-01
2.004941636202e-01-j4.003701462078e-01
1.973852778166e-01-j3.980255392784e-01
1.943423879119e-01-j3.956935988522e-01
1.913638270975e-01-j3.933747739448e-01
1.884479729759e-01-j3.910694752306e-01
1.855932465665e-01-j3.887780773081e-01
1.827981113096e-01-j3.865009208414e-01
1.800610720683e-01-j3.842383145835e-01
1.773806741347e-01-j3.819905372888e-01
1.747555022396e-01-j3.797578395196e-01
1.721841795711e-01-j3.775404453519e-01
1.696653668009e-01-j3.753385539872e-01
1.671977611232e-01-j3.731523412744e-01
1.647800953047e-01-j3.709819611465e-01
1.624111367493e-01-j3.688275469771e-01
1.600896865769e-01-j3.666892128610e-01
1.578145787182e-01-j3.645670548228e-01
1.555846790261e-01-j3.624611519576e-01
1.533988844039e-01-j3.603715675072e-01
1.512561219512e-01-j3.582983498755e-01
1.491553481276e-01-j3.562415335871e-01
1.470955479347e-01-j3.542011401908e-01
1.450757341169e-01-j3.521771791121e-01
1.430949463800e-01-j3.501696484570e-01
1.411522506292e-01-j3.481785357708e-01
1.392467382249e-01-j3.462038187523e-01
1.373775252581e-01-j3.442454659281e-01
1.355437518427e-01-j3.423034372879e-01
1.337445814279e-01-j3.403776848833e-01
1.319792001270e-01-j3.384681533924e-01
1.302468160655e-01-j3.365747806511e-01
1.285466587455e-01-j3.346974981545e-01
1.268779784285e-01-j3.328362315290e-01
1.252400455348e-01-j3.309909009765e-01
1.236321500594e-01-j3.291614216932e-01
1.220536010054e-01-j3.273477042642e-01
1.205037258320e-01-j3.255496550338e-01
1.189818699194e-01-j3.237671764554e-01
1.174873960490e-01-j3.220001674202e-01
1.160196838978e-01-j3.202485235658e-01
1.145781295491e-01-j3.185121375680e-01
1.131621450158e-01-j3.167908994135e-01
1.117711577791e-01-j3.150846966577e-01
1.104046103403e-01-j3.133934146658e-01
1.090619597855e-01-j3.117169368405e-01
1.077426773645e-01-j3.100551448352e-01
1.064462480807e-01-j3.084079187541e-01
1.051721702948e-01-j3.067751373405e-01
1.039199553392e-01-j3.051566781532e-01
1.026891271449e-01-j3.035524177323e-01
1.014792218790e-01-j3.019622317540e-01
1.002897875937e-01-j3.003859951764e-01
9.912038388551e-02-j2.988235823758e-01
9.797058156508e-02-j2.972748672742e-01
9.683996233686e-02-j2.957397234587e-01
9.572811848856e-02-j2.942180242935e-01
9.463465259003e-02-j2.927096430239e-01
9.355917720134e-02-j2.912144528741e-01
9.250131458962e-02-j2.897323271380e-01
9.146069645466e-02-j2.882631392646e-01
9.043696366269e-02-j2.868067629366e-01
8.942976598839e-02-j2.853630721443e-01
8.843876186465e-02-j2.839319412544e-01
8.746361813998e-02-j2.825132450733e-01
8.650400984322e-02-j2.811068589065e-01
8.555961995545e-02-j2.797126586133e-01
8.463013918879e-02-j2.783305206579e-01
8.371526577187e-02-j2.769603221557e-01
8.281470524181e-02-j2.756019409176e-01
8.192817024251e-02-j2.742552554888e-01
8.105538032894e-02-j2.729201451866e-01
8.019606177744e-02-j2.715964901335e-01
7.934994740161e-02-j2.702841712882e-01
7.851677637385e-02-j2.689830704742e-01
7.769629405214e-02-j2.676930704047e-01
7.688825181212e-02-j2.664140547069e-01
7.609240688404e-02-j2.651459079425e-01
7.530852219479e-02-j2.638885156266e-01
7.453636621438e-02-j2.626417642454e-01
7.377571280724e-02-j2.614055412707e-01
7.302634108772e-02-j2.601797351737e-01
7.228803528003e-02-j2.589642354368e-01
7.156058458221e-02-j2.577589325639e-01
7.084378303418e-02-j2.565637180889e-01
7.013742938963e-02-j2.553784845837e-01
6.944132699174e-02-j2.542031256640e-01
6.875528365243e-02-j2.530375359948e-01
6.807911153528e-02-j2.518816112936e-01
6.741262704175e-02-j2.507352483339e-01
6.675565070078e-02-j2.495983449470e-01
6.610800706157e-02-j2.484708000227e-01
6.546952458947e-02-j2.473525135096e-01
6.484003556490e-02-j2.462433864144e-01
6.421937598514e-02-j2.451433208008e-01
6.360738546902e-02-j2.440522197867e-01
6.300390716424e-02-j2.429699875422e-01
6.240878765745e-02-j2.418965292859e-01
6.182187688682e-02-j2.408317512809e-01
</dep>
