<Qucs Dataset 25.1.2>
<indep frequency 200>
1.000000000000e+00
5.124623115578e+01
1.014924623116e+02
1.517386934673e+02
2.019849246231e+02
2.522311557789e+02
3.024773869347e+02
3.527236180905e+02
4.029698492462e+02
4.532160804020e+02
5.034623115578e+02
5.537085427136e+02
6.039547738693e+02
6.542010050251e+02
7.044472361809e+02
7.546934673367e+02
8.049396984925e+02
8.551859296482e+02
9.054321608040e+02
9.556783919598e+02
1.005924623116e+03
1.056170854271e+03
1.106417085427e+03
1.156663316583e+03
1.206909547739e+03
1.257155778894e+03
1.307402010050e+03
1.357648241206e+03
1.407894472362e+03
1.458140703518e+03
1.508386934673e+03
1.558633165829e+03
1.608879396985e+03
1.659125628141e+03
1.709371859296e+03
1.759618090452e+03
1.809864321608e+03
1.860110552764e+03
1.910356783920e+03
1.960603015075e+03
2.010849246231e+03
2.061095477387e+03
2.111341708543e+03
2.161587939698e+03
2.211834170854e+03
2.262080402010e+03
2.312326633166e+03
2.362572864322e+03
2.412819095477e+03
2.463065326633e+03
2.513311557789e+03
2.563557788945e+03
2.613804020100e+03
2.664050251256e+03
2.714296482412e+03
2.764542713568e+03
2.814788944724e+03
2.865035175879e+03
2.915281407035e+03
2.965527638191e+03
3.015773869347e+03
3.066020100503e+03
3.116266331658e+03
3.166512562814e+03
3.216758793970e+03
3.267005025126e+03
3.317251256281e+03
3.367497487437e+03
3.417743718593e+03
3.467989949749e+03
3.518236180905e+03
3.568482412060e+03
3.618728643216e+03
3.668974874372e+03
3.719221105528e+03
3.769467336683e+03
3.819713567839e+03
3.869959798995e+03
3.920206030151e+03
3.970452261307e+03
4.020698492462e+03
4.070944723618e+03
4.121190954774e+03
4.171437185930e+03
4.221683417085e+03
4.271929648241e+03
4.322175879397e+03
4.372422110553e+03
4.422668341709e+03
4.472914572864e+03
4.523160804020e+03
4.573407035176e+03
4.623653266332e+03
4.673899497487e+03
4.724145728643e+03
4.774391959799e+03
4.824638190955e+03
4.874884422111e+03
4.925130653266e+03
4.975376884422e+03
5.025623115578e+03
5.075869346734e+03
5.126115577889e+03
5.176361809045e+03
5.226608040201e+03
5.276854271357e+03
5.327100502513e+03
5.377346733668e+03
5.427592964824e+03
5.477839195980e+03
5.528085427136e+03
5.578331658291e+03
5.628577889447e+03
5.678824120603e+03
5.729070351759e+03
5.779316582915e+03
5.829562814070e+03
5.879809045226e+03
5.930055276382e+03
5.980301507538e+03
6.030547738693e+03
6.080793969849e+03
6.131040201005e+03
6.181286432161e+03
6.231532663317e+03
6.281778894472e+03
6.332025125628e+03
6.382271356784e+03
6.432517587940e+03
6.482763819095e+03
6.533010050251e+03
6.583256281407e+03
6.633502512563e+03
6.683748743719e+03
6.733994974874e+03
6.784241206030e+03
6.834487437186e+03
6.884733668342e+03
6.934979899498e+03
6.985226130653e+03
7.035472361809e+03
7.085718592965e+03
7.135964824121e+03
7.186211055276e+03
7.236457286432e+03
7.286703517588e+03
7.336949748744e+03
7.387195979900e+03
7.437442211055e+03
7.487688442211e+03
7.537934673367e+03
7.588180904523e+03
7.638427135678e+03
7.688673366834e+03
7.738919597990e+03
7.789165829146e+03
7.839412060302e+03
7.889658291457e+03
7.939904522613e+03
7.990150753769e+03
8.040396984925e+03
8.090643216080e+03
8.140889447236e+03
8.191135678392e+03
8.241381909548e+03
8.291628140704e+03
8.341874371859e+03
8.392120603015e+03
8.442366834171e+03
8.492613065327e+03
8.542859296482e+03
8.593105527638e+03
8.643351758794e+03
8.693597989950e+03
8.743844221106e+03
8.794090452261e+03
8.844336683417e+03
8.894582914573e+03
8.944829145729e+03
8.995075376884e+03
9.045321608040e+03
9.095567839196e+03
9.145814070352e+03
9.196060301508e+03
9.246306532663e+03
9.296552763819e+03
9.346798994975e+03
9.397045226131e+03
9.447291457286e+03
9.497537688442e+03
9.547783919598e+03
9.598030150754e+03
9.648276381910e+03
9.698522613065e+03
9.748768844221e+03
9.799015075377e+03
9.849261306533e+03
9.899507537688e+03
9.949753768844e+03
1.000000000000e+04
</indep>
<dep ac.v(in) frequency>
1.000000000000e+00+j0.000000000000e+00
1.000000000000e+00+j0.000000000000e+00
1.000000000000e+00+j0.000000000000e+00
1.000000000000e+00+j0.000000000000e+00
1.000000000000e+00+j0.000000000000e+00
1.000000000000e+00+j0.000000000000e+00
1.000000000000e+00+j0.000000000000e+00
1.000000000000e+00+j0.000000000000e+00
1.000000000000e+00+j0.000000000000e+00
1.000000000000e+00+j0.000000000000e+00
1.000000000000e+00+j0.000000000000e+00
1.000000000000e+00+j0.000000000000e+00
1.000000000000e+00+j0.000000000000e+00
1.000000000000e+00+j0.000000000000e+00
1.000000000000e+00+j0.000000000000e+00
1.000000000000e+00+j0.000000000000e+00
1.000000000000e+00+j0.000000000000e+00
1.000000000000e+00+j0.000000000000e+00
1.000000000000e+00+j0.000000000000e+00
1.000000000000e+00+j0.000000000000e+00
1.000000000000e+00+j0.000000000000e+00
1.000000000000e+00+j0.000000000000e+00
1.000000000000e+00+j0.000000000000e+00
1.000000000000e+00+j0.000000000000e+00
1.000000000000e+00+j0.000000000000e+00
1.000000000000e+00+j0.000000000000e+00
1.000000000000e+00+j0.000000000000e+00
1.000000000000e+00+j0.000000000000e+00
1.000000000000e+00+j0.000000000000e+00
1.000000000000e+00+j0.000000000000e+00
1.000000000000e+00+j0.000000000000e+00
1.000000000000e+00+j0.000000000000e+00
1.000000000000e+00+j0.000000000000e+00
1.000000000000e+00+j0.000000000000e+00
1.000000000000e+00+j0.000000000000e+00
1.000000000000e+00+j0.000000000000e+00
1.000000000000e+00+j0.000000000000e+00
1.000000000000e+00+j0.000000000000e+00
1.000000000000e+00+j0.000000000000e+00
1.000000000000e+00+j0.000000000000e+00
1.000000000000e+00+j0.000000000000e+00
1.000000000000e+00+j0.000000000000e+00
1.000000000000e+00+j0.000000000000e+00
1.000000000000e+00+j0.000000000000e+00
1.000000000000e+00+j0.000000000000e+00
1.000000000000e+00+j0.000000000000e+00
1.000000000000e+00+j0.000000000000e+00
1.000000000000e+00+j0.000000000000e+00
1.000000000000e+00+j0.000000000000e+00
1.000000000000e+00+j0.000000000000e+00
1.000000000000e+00+j0.000000000000e+00
1.000000000000e+00+j0.000000000000e+00
1.000000000000e+00+j0.000000000000e+00
1.000000000000e+00+j0.000000000000e+00
1.000000000000e+00+j0.000000000000e+00
1.000000000000e+00+j0.000000000000e+00
1.000000000000e+00+j0.000000000000e+00
1.000000000000e+00+j0.000000000000e+00
1.000000000000e+00+j0.000000000000e+00
1.000000000000e+00+j0.000000000000e+00
1.000000000000e+00+j0.000000000000e+00
1.000000000000e+00+j0.000000000000e+00
1.000000000000e+00+j0.000000000000e+00
1.000000000000e+00+j0.000000000000e+00
1.000000000000e+00+j0.000000000000e+00
1.000000000000e+00+j0.000000000000e+00
1.000000000000e+00+j0.000000000000e+00
1.000000000000e+00+j0.000000000000e+00
1.000000000000e+00+j0.000000000000e+00
1.000000000000e+00+j0.000000000000e+00
1.000000000000e+00+j0.000000000000e+00
1.000000000000e+00+j0.000000000000e+00
1.000000000000e+00+j0.000000000000e+00
1.000000000000e+00+j0.000000000000e+00
1.000000000000e+00+j0.000000000000e+00
1.000000000000e+00+j0.000000000000e+00
1.000000000000e+00+j0.000000000000e+00
1.000000000000e+00+j0.000000000000e+00
1.000000000000e+00+j0.000000000000e+00
1.000000000000e+00+j0.000000000000e+00
1.000000000000e+00+j0.000000000000e+00
1.000000000000e+00+j0.000000000000e+00
1.000000000000e+00+j0.000000000000e+00
1.000000000000e+00+j0.000000000000e+00
1.000000000000e+00+j0.000000000000e+00
1.000000000000e+00+j0.000000000000e+00
1.000000000000e+00+j0.000000000000e+00
1.000000000000e+00+j0.000000000000e+00
1.000000000000e+00+j0.000000000000e+00
1.000000000000e+00+j0.000000000000e+00
1.000000000000e+00+j0.000000000000e+00
1.000000000000e+00+j0.000000000000e+00
1.000000000000e+00+j0.000000000000e+00
1.000000000000e+00+j0.000000000000e+00
1.000000000000e+00+j0.000000000000e+00
1.000000000000e+00+j0.000000000000e+00
1.000000000000e+00+j0.000000000000e+00
1.000000000000e+00+j0.000000000000e+00
1.000000000000e+00+j0.000000000000e+00
1.000000000000e+00+j0.000000000000e+00
1.000000000000e+00+j0.000000000000e+00
1.000000000000e+00+j0.000000000000e+00
1.000000000000e+00+j0.000000000000e+00
1.000000000000e+00+j0.000000000000e+00
1.000000000000e+00+j0.000000000000e+00
1.000000000000e+00+j0.000000000000e+00
1.000000000000e+00+j0.000000000000e+00
1.000000000000e+00+j0.000000000000e+00
1.000000000000e+00+j0.000000000000e+00
1.000000000000e+00+j0.000000000000e+00
1.000000000000e+00+j0.000000000000e+00
1.000000000000e+00+j0.000000000000e+00
1.000000000000e+00+j0.000000000000e+00
1.000000000000e+00+j0.000000000000e+00
1.000000000000e+00+j0.000000000000e+00
1.000000000000e+00+j0.000000000000e+00
1.000000000000e+00+j0.000000000000e+00
1.000000000000e+00+j0.000000000000e+00
1.000000000000e+00+j0.000000000000e+00
1.000000000000e+00+j0.000000000000e+00
1.000000000000e+00+j0.000000000000e+00
1.000000000000e+00+j0.000000000000e+00
1.000000000000e+00+j0.000000000000e+00
1.000000000000e+00+j0.000000000000e+00
1.000000000000e+00+j0.000000000000e+00
1.000000000000e+00+j0.000000000000e+00
1.000000000000e+00+j0.000000000000e+00
1.000000000000e+00+j0.000000000000e+00
1.000000000000e+00+j0.000000000000e+00
1.000000000000e+00+j0.000000000000e+00
1.000000000000e+00+j0.000000000000e+00
1.000000000000e+00+j0.000000000000e+00
1.000000000000e+00+j0.000000000000e+00
1.000000000000e+00+j0.000000000000e+00
1.000000000000e+00+j0.000000000000e+00
1.000000000000e+00+j0.000000000000e+00
1.000000000000e+00+j0.000000000000e+00
1.000000000000e+00+j0.000000000000e+00
1.000000000000e+00+j0.000000000000e+00
1.000000000000e+00+j0.000000000000e+00
1.000000000000e+00+j0.000000000000e+00
1.000000000000e+00+j0.000000000000e+00
1.000000000000e+00+j0.000000000000e+00
1.000000000000e+00+j0.000000000000e+00
1.000000000000e+00+j0.000000000000e+00
1.000000000000e+00+j0.000000000000e+00
1.000000000000e+00+j0.000000000000e+00
1.000000000000e+00+j0.000000000000e+00
1.000000000000e+00+j0.000000000000e+00
1.000000000000e+00+j0.000000000000e+00
1.000000000000e+00+j0.000000000000e+00
1.000000000000e+00+j0.000000000000e+00
1.000000000000e+00+j0.000000000000e+00
1.000000000000e+00+j0.000000000000e+00
1.000000000000e+00+j0.000000000000e+00
1.000000000000e+00+j0.000000000000e+00
1.000000000000e+00+j0.000000000000e+00
1.000000000000e+00+j0.000000000000e+00
1.000000000000e+00+j0.000000000000e+00
1.000000000000e+00+j0.000000000000e+00
1.000000000000e+00+j0.000000000000e+00
1.000000000000e+00+j0.000000000000e+00
1.000000000000e+00+j0.000000000000e+00
1.000000000000e+00+j0.000000000000e+00
1.000000000000e+00+j0.000000000000e+00
1.000000000000e+00+j0.000000000000e+00
1.000000000000e+00+j0.000000000000e+00
1.000000000000e+00+j0.000000000000e+00
1.000000000000e+00+j0.000000000000e+00
1.000000000000e+00+j0.000000000000e+00
1.000000000000e+00+j0.000000000000e+00
1.000000000000e+00+j0.000000000000e+00
1.000000000000e+00+j0.000000000000e+00
1.000000000000e+00+j0.000000000000e+00
1.000000000000e+00+j0.000000000000e+00
1.000000000000e+00+j0.000000000000e+00
1.000000000000e+00+j0.000000000000e+00
1.000000000000e+00+j0.000000000000e+00
1.000000000000e+00+j0.000000000000e+00
1.000000000000e+00+j0.000000000000e+00
1.000000000000e+00+j0.000000000000e+00
1.000000000000e+00+j0.000000000000e+00
1.000000000000e+00+j0.000000000000e+00
1.000000000000e+00+j0.000000000000e+00
1.000000000000e+00+j0.000000000000e+00
1.000000000000e+00+j0.000000000000e+00
1.000000000000e+00+j0.000000000000e+00
1.000000000000e+00+j0.000000000000e+00
1.000000000000e+00+j0.000000000000e+00
1.000000000000e+00+j0.000000000000e+00
1.000000000000e+00+j0.000000000000e+00
1.000000000000e+00+j0.000000000000e+00
1.000000000000e+00+j0.000000000000e+00
1.000000000000e+00+j0.000000000000e+00
1.000000000000e+00+j0.000000000000e+00
1.000000000000e+00+j0.000000000000e+00
1.000000000000e+00+j0.000000000000e+00
1.000000000000e+00+j0.000000000000e+00
1.000000000000e+00+j0.000000000000e+00
1.000000000000e+00+j0.000000000000e+00
</dep>
<dep ac.v(out) frequency>
4.999998148341e-01-j4.153633655069e-04
4.995139167569e-01-j2.127731238959e-02
4.980956507029e-01-j4.209039599419e-02
4.957514977469e-01-j6.280743900733e-02
4.924919714021e-01-j8.338269447585e-02
4.883312819435e-01-j1.037724877119e-01
4.832868837757e-01-j1.239357882272e-01
4.773789208443e-01-j1.438346902578e-01
4.706295878420e-01-j1.634347860074e-01
4.630624267936e-01-j1.827054194716e-01
4.547015794973e-01-j2.016198124780e-01
4.455710163314e-01-j2.201550581192e-01
4.356937612470e-01-j2.382919798417e-01
4.250911315601e-01-j2.560148569083e-01
4.137820096805e-01-j2.733110186514e-01
4.017821624320e-01-j2.901703108541e-01
3.891036224254e-01-j3.065844377401e-01
3.757541453049e-01-j3.225461825443e-01
3.617367568883e-01-j3.380485086255e-01
3.470494054927e-01-j3.530835418293e-01
3.316847373264e-01-j3.676414336301e-01
3.156300169059e-01-j3.817091038922e-01
2.988672201744e-01-j3.952688624341e-01
2.813733353938e-01-j4.082969106033e-01
2.631209158751e-01-j4.207617286248e-01
2.440789388830e-01-j4.326223625781e-01
2.242140359468e-01-j4.438266376903e-01
2.034921701626e-01-j4.543093435652e-01
1.818808439800e-01-j4.639904633748e-01
1.593519235746e-01-j4.727735540938e-01
1.358851591456e-01-j4.805444291245e-01
1.114724589425e-01-j4.871703473876e-01
8.612293189430e-02-j4.924999712089e-01
5.986864212873e-02-j4.963644127481e-01
3.277091187854e-02-j4.985797342560e-01
4.926863865405e-03-j4.989512844400e-01
-2.352428643467e-02-j4.972802194063e-01
-5.239587956553e-02-j4.933724463049e-01
-8.145028436136e-02-j4.870500170188e-01
-1.103982094405e-01-j4.781646751161e-01
-1.389018811325e-01-j4.666128323748e-01
-1.665829377300e-01-j4.523507681927e-01
-1.930354748479e-01-j4.354083957483e-01
-2.178440212707e-01-j4.158996486231e-01
-2.406053988222e-01-j3.940275457618e-01
-2.609525741356e-01-j3.700823898818e-01
-2.785779531945e-01-j3.444323557460e-01
-2.932533098567e-01-j3.175068194502e-01
-3.048438095960e-01-j2.897739435633e-01
-3.133143821091e-01-j2.617149858218e-01
-3.187278484410e-01-j2.337982982099e-01
-3.212354478909e-01-j2.064559094481e-01
-3.210614475305e-01-j1.800649822066e-01
-3.184841410620e-01-j1.549354920105e-01
-3.138156783021e-01-j1.313044391471e-01
-3.073828728864e-01-j1.093360084448e-01
-2.995105653747e-01-j8.912648168515e-02
-2.905084490948e-01-j7.071242737416e-02
-2.806616454930e-01-j5.408070107044e-02
-2.702248362066e-01-j3.917899726709e-02
-2.594194530666e-01-j2.592600207722e-02
-2.484332826572e-01-j1.422052224398e-02
-2.374218222664e-01-j3.949255684056e-03
-2.265107854057e-01+j5.006905063171e-03
-2.157992584140e-01+j1.276798821128e-02
-2.053631255746e-01+j1.945133373362e-02
-1.952584898457e-01+j2.516907059531e-02
-1.855249098050e-01+j3.002647897546e-02
-1.761883472577e-01+j3.412104614841e-02
-1.672637746064e-01+j3.754204647496e-02
-1.587574290806e-01+j4.037050266028e-02
-1.506687255654e-01+j4.267941259941e-02
-1.429918543439e-01+j4.453415119197e-02
-1.357170974405e-01+j4.599297823384e-02
-1.288318997593e-01+j4.710760151337e-02
-1.223217306074e-01+j4.792375868059e-02
-1.161707687610e-01+j4.848179271035e-02
-1.103624408720e-01+j4.881720433158e-02
-1.048798392911e-01+j4.896117114568e-02
-9.970604168657e-02+j4.894102776288e-02
-9.482435137294e-02+j4.878070454258e-02
-9.021847413433e-02+j4.850112475821e-02
-8.587264458926e-02+j4.812056148103e-02
-8.177171278500e-02+j4.765495639652e-02
-7.790119971512e-02+j4.711820328862e-02
-7.424732878538e-02+j4.652239917026e-02
-7.079703887064e-02+j4.587806609241e-02
-6.753798346980e-02+j4.519434659229e-02
-6.445851953869e-02+j4.447917559151e-02
-6.154768882795e-02+j4.373943136038e-02
-5.879519394523e-02+j4.298106794753e-02
-5.619137087205e-02+j4.220923125059e-02
-5.372715927447e-02+j4.142836068448e-02
-5.139407163422e-02+j4.064227819468e-02
-4.918416197914e-02+j3.985426616773e-02
-4.708999479554e-02+j3.906713561238e-02
-4.510461455027e-02+j3.828328582240e-02
-4.322151612936e-02+j3.750475658583e-02
-4.143461640556e-02+j3.673327387541e-02
-3.973822707366e-02+j3.597028983890e-02
-3.812702883648e-02+j3.521701780599e-02
-3.659604698138e-02+j3.447446293829e-02
-3.514062835482e-02+j3.374344906955e-02
-3.375641971871e-02+j3.302464221447e-02
-3.243934745480e-02+j3.231857116305e-02
-3.118559857092e-02+j3.162564552504e-02
-2.999160295499e-02+j3.094617154241e-02
-2.885401681690e-02+j3.028036594745e-02
-2.776970725590e-02+j2.962836810905e-02
-2.673573788968e-02+j2.899025067884e-02
-2.574935548168e-02+j2.836602892224e-02
-2.480797750421e-02+j2.775566889627e-02
-2.390918057674e-02+j2.715909461536e-02
-2.305068972133e-02+j2.657619432909e-02
-2.223036837941e-02+j2.600682602014e-02
-2.144620913723e-02+j2.545082221714e-02
-2.069632511027e-02+j2.490799420582e-02
-1.997894193954e-02+j2.437813571105e-02
-1.929239035597e-02+j2.386102611384e-02
-1.863509927180e-02+j2.335643325937e-02
-1.800558936056e-02+j2.286411590523e-02
-1.740246708994e-02+j2.238382585320e-02
-1.682441917440e-02+j2.191530980259e-02
-1.627020741671e-02+j2.145831095856e-02
-1.573866390976e-02+j2.101257042485e-02
-1.522868657213e-02+j2.057782840683e-02
-1.473923499295e-02+j2.015382524767e-02
-1.426932656335e-02+j1.974030231775e-02
-1.381803287335e-02+j1.933700277494e-02
-1.338447635489e-02+j1.894367221151e-02
-1.296782715300e-02+j1.856005920119e-02
-1.256730020846e-02+j1.818591575891e-02
-1.218215253669e-02+j1.782099772346e-02
-1.181168068851e-02+j1.746506507304e-02
-1.145521837990e-02+j1.711788218156e-02
-1.111213427842e-02+j1.677921802354e-02
-1.078182993522e-02+j1.644884633369e-02
-1.046373785224e-02+j1.612654572724e-02
-1.015731967502e-02+j1.581209978597e-02
-9.862064502212e-03+j1.550529711440e-02
-9.577487303795e-03+j1.520593137016e-02
-9.303127440126e-03+j1.491380127200e-02
-9.038547275050e-03+j1.462871058861e-02
-8.783330876456e-03+j1.435046811079e-02
-8.537082798296e-03+j1.407888760956e-02
-8.299426938500e-03+j1.381378778227e-02
-8.070005467607e-03+j1.355499218849e-02
-7.848477823347e-03+j1.330232917744e-02
-7.634519766722e-03+j1.305563180834e-02
-7.427822495481e-03+j1.281473776495e-02
-7.228091811157e-03+j1.257948926544e-02
-7.035047336136e-03+j1.234973296855e-02
-6.848421777457e-03+j1.212531987690e-02
-6.667960234284e-03+j1.190610523816e-02
-6.493419546212e-03+j1.169194844484e-02
-6.324567679769e-03+j1.148271293308e-02
-6.161183150648e-03+j1.127826608116e-02
-6.003054479387e-03+j1.107847910797e-02
-5.849979678379e-03+j1.088322697187e-02
-5.701765768211e-03+j1.069238827029e-02
-5.558228321512e-03+j1.050584514028e-02
-5.419191032568e-03+j1.032348316032e-02
-5.284485311120e-03+j1.014519125342e-02
-5.153949898838e-03+j9.970861591922e-03
-5.027430507085e-03+j9.800389503864e-03
-4.904779474668e-03+j9.633673381225e-03
-4.785855444359e-03+j9.470614590027e-03
-4.670523057057e-03+j9.311117382397e-03
-4.558652662526e-03+j9.155088810636e-03
-4.450120045725e-03+j9.002438643337e-03
-4.344806167797e-03+j8.853079283567e-03
-4.242596920859e-03+j8.706925689131e-03
-4.143382895774e-03+j8.563895294924e-03
-4.047059162156e-03+j8.423907937369e-03
-3.953525059887e-03+j8.286885780914e-03
-3.862684001494e-03+j8.152753246594e-03
-3.774443284747e-03+j8.021436942620e-03
-3.688713914912e-03+j7.892865596962e-03
-3.605410436094e-03+j7.766969991920e-03
-3.524450771165e-03+j7.643682900618e-03
-3.445756069794e-03+j7.522939025411e-03
-3.369250564130e-03+j7.404674938149e-03
-3.294861431698e-03+j7.288829022266e-03
-3.222518665131e-03+j7.175341416653e-03
-3.152154948341e-03+j7.064153961265e-03
-3.083705538797e-03+j6.955210144427e-03
-3.017108155557e-03+j6.848455051796e-03
-2.952302872763e-03+j6.743835316927e-03
-2.889232018286e-03+j6.641299073409e-03
-2.827840077263e-03+j6.540795908518e-03
-2.768073600255e-03+j6.442276818354e-03
-2.709881115777e-03+j6.345694164414e-03
-2.653213046989e-03+j6.251001631554e-03
-2.598021632302e-03+j6.158154187310e-03
-2.544260849723e-03+j6.067108042528e-03
-2.491886344722e-03+j5.977820613262e-03
-2.440855361458e-03+j5.890250483911e-03
-2.391126677172e-03+j5.804357371547e-03
-2.342660539609e-03+j5.720102091393e-03
-2.295418607285e-03+j5.637446523432e-03
</dep>
<dep ac.s21_db_clipped frequency>
-6.020600132845e+00+j0.000000000000e+00
-6.021175355867e+00+j0.000000000000e+00
-6.022843559735e+00+j0.000000000000e+00
-6.025565487604e+00+j0.000000000000e+00
-6.029276821722e+00+j0.000000000000e+00
-6.033889309207e+00+j0.000000000000e+00
-6.039292307190e+00+j0.000000000000e+00
